
**** 12/13/24 23:11:51 ********* PSpice 9.2 (Mar 2000) ******** ID# 1 ********

 * D:\orcad_projects\18.11.24 (2)\18.11.24.sch


 ****     CIRCUIT DESCRIPTION


******************************************************************************




* Schematics Version 9.2
* Fri Dec 13 23:11:51 2024



** Analysis setup **
.ac DEC 1001 1 5000K
.OP 


* From [PSPICE NETLIST] section of C:\Program Files\Orcad\PSpice\PSpice.ini:
.lib "nom.lib"

.INC "18.11.24.net"



**** INCLUDING 18.11.24.net ****
* Schematics Netlist *



Q_Q1         $N_0002 $N_0001 $N_0003 BC548A 
Q_Q3         $N_0005 $N_0004 $N_0006 BC548A 
V_V1         $N_0007 0 18V
R_R1         $N_0001 $N_0007  43k  
R_R2         0 $N_0001  4.3k  
R_R3         $N_0002 $N_0007  1.8k  
R_R4         $N_0008 $N_0003  150  
R_R5         0 $N_0008  30  
R_R6         $N_0004 $N_0007  43k  
R_R7         0 $N_0004  4.3k  
R_R8         $N_0005 $N_0007  1.8k  
R_R9         $N_0009 $N_0006  30  
V_V2         $N_0010 0 DC 0 AC 18m
+SIN 0 18m 1800 0 0 0
C_C3         0 $N_0008  100u  
C_C5         0 $N_0009  100u  
R_R10         0 $N_0009  150  
R_Rn         $N_0011 0  1.9k  
R_Ro         $N_0012 $N_0010  80  
C_C1         $N_0001 $N_0012  510n  
C_C2         $N_0002 $N_0004  510n  
C_C4         $N_0005 $N_0011  510n  

**** RESUMING 18.11.24.cir ****
.PROBE V(*) I(*) W(*) D(*) NOISE(*) 


.END

**** 12/13/24 23:11:51 ********* PSpice 9.2 (Mar 2000) ******** ID# 1 ********

 * D:\orcad_projects\18.11.24 (2)\18.11.24.sch


 ****     BJT MODEL PARAMETERS


******************************************************************************




               BC548A          
               NPN             
          IS    7.049000E-15 
          BF  253            
          NF    1            
         VAF  127.9          
         IKF     .07705      
         ISE   96.260000E-15 
          NE    1.556        
          BR    1            
          NR    1            
         IKR    3.321        
         ISC  130.800000E-15 
          NC    1.602        
          NK     .5305       
          RC     .8766       
         CJE   11.500000E-12 
         VJE     .5          
         MJE     .6715       
         CJC    5.250000E-12 
         VJC     .5697       
         MJC     .3147       
          TF  409.500000E-12 
         XTF   40.12         
         VTF   10            
         ITF    1.994        
          TR   10.000000E-09 
         XTB    1.5          
          CN    2.42         
           D     .87         


**** 12/13/24 23:11:51 ********* PSpice 9.2 (Mar 2000) ******** ID# 1 ********

 * D:\orcad_projects\18.11.24 (2)\18.11.24.sch


 ****     SMALL SIGNAL BIAS SOLUTION       TEMPERATURE =   27.000 DEG C


******************************************************************************



 NODE   VOLTAGE     NODE   VOLTAGE     NODE   VOLTAGE     NODE   VOLTAGE


($N_0001)    1.5494                   ($N_0002)    9.5860                       

($N_0003)     .8454                   ($N_0004)    1.5494                       

($N_0005)    9.5860                   ($N_0006)     .8454                       

($N_0007)   18.0000                   ($N_0008)     .1409                       

($N_0009)     .7045                   ($N_0010)    0.0000                       

($N_0011)    0.0000                   ($N_0012)    0.0000                   




    VOLTAGE SOURCE CURRENTS
    NAME         CURRENT

    V_V1        -1.011E-02
    V_V2         0.000E+00

    TOTAL POWER DISSIPATION   1.82E-01  WATTS


**** 12/13/24 23:11:51 ********* PSpice 9.2 (Mar 2000) ******** ID# 1 ********

 * D:\orcad_projects\18.11.24 (2)\18.11.24.sch


 ****     OPERATING POINT INFORMATION      TEMPERATURE =   27.000 DEG C


******************************************************************************






**** BIPOLAR JUNCTION TRANSISTORS


NAME         Q_Q1        Q_Q3      
MODEL        BC548A      BC548A    
IB           2.23E-05    2.23E-05 
IC           4.67E-03    4.67E-03 
VBE          7.04E-01    7.04E-01 
VBC         -8.04E+00   -8.04E+00 
VCE          8.74E+00    8.74E+00 
BETADC       2.10E+02    2.10E+02 
GM           1.71E-01    1.71E-01 
RPI          1.24E+03    1.24E+03 
RX           0.00E+00    0.00E+00 
RO           2.91E+04    2.91E+04 
CBE          1.11E-10    1.11E-10 
CBC          2.23E-12    2.23E-12 
CJS          0.00E+00    0.00E+00 
BETAAC       2.11E+02    2.11E+02 
CBX/CBX2     0.00E+00    0.00E+00 
FT/FT2       2.41E+08    2.41E+08 



          JOB CONCLUDED

          TOTAL JOB TIME            2.97
